tb_top.ahb_intf.HSIZE
tb_top.ahb_intf.HRESP
tb_top.DUT.ahb.hresp
tb_top.ahb_intf.HADDR[10]
tb_top.ahb_intf.HADDR[11]
tb_top.ahb_intf.HADDR[12]
tb_top.ahb_intf.HADDR[13]
tb_top.ahb_intf.HADDR[14]
tb_top.ahb_intf.HADDR[15]
tb_top.ahb_intf.HADDR[16]
tb_top.ahb_intf.HADDR[17]
tb_top.ahb_intf.HADDR[18]
tb_top.ahb_intf.HADDR[19]
tb_top.ahb_intf.HADDR[20]
tb_top.ahb_intf.HADDR[21]
tb_top.ahb_intf.HADDR[22]
tb_top.ahb_intf.HADDR[23]
tb_top.ahb_intf.HADDR[24]
tb_top.ahb_intf.HADDR[25]
tb_top.ahb_intf.HADDR[26]
tb_top.ahb_intf.HADDR[27]
tb_top.ahb_intf.HADDR[28]
tb_top.ahb_intf.HADDR[29]
tb_top.ahb_intf.HADDR[30]
tb_top.ahb_intf.HADDR[31]
tb_top.ahb_intf.HWDATA[30]
tb_top.ahb_intf.HWDATA[31]
tb_top.ahb_intf.HRDATA[30]
tb_top.ahb_intf.HRDATA[31]
tb_top.apb_intf.PADDR[8]
tb_top.apb_intf.PADDR[9]
tb_top.apb_intf.PADDR[10]
tb_top.apb_intf.PADDR[11]
tb_top.apb_intf.PADDR[12]
tb_top.apb_intf.PADDR[13]
tb_top.apb_intf.PADDR[14]
tb_top.apb_intf.PADDR[15]
tb_top.apb_intf.PADDR[16]
tb_top.apb_intf.PADDR[17]
tb_top.apb_intf.PADDR[18]
tb_top.apb_intf.PADDR[19]
tb_top.apb_intf.PADDR[20]
tb_top.apb_intf.PADDR[21]
tb_top.apb_intf.PADDR[22]
tb_top.apb_intf.PADDR[23]
tb_top.apb_intf.PADDR[24]
tb_top.apb_intf.PADDR[25]
tb_top.apb_intf.PADDR[26]
tb_top.apb_intf.PADDR[27]
tb_top.apb_intf.PADDR[28]
tb_top.apb_intf.PADDR[29]
tb_top.apb_intf.PADDR[30]
tb_top.apb_intf.PADDR[31]
tb_top.apb_intf.PWDATA[30]
tb_top.apb_intf.PWDATA[31]
tb_top.apb_intf.PRDATA[30]
tb_top.apb_intf.PRDATA[31]
tb_top.DUT.haddr[10]
tb_top.DUT.haddr[11]
tb_top.DUT.haddr[12]
tb_top.DUT.haddr[13]
tb_top.DUT.haddr[14]
tb_top.DUT.haddr[15]
tb_top.DUT.haddr[16]
tb_top.DUT.haddr[17]
tb_top.DUT.haddr[18]
tb_top.DUT.haddr[19]
tb_top.DUT.haddr[20]
tb_top.DUT.haddr[21]
tb_top.DUT.haddr[22]
tb_top.DUT.haddr[23]
tb_top.DUT.haddr[24]
tb_top.DUT.haddr[25]
tb_top.DUT.haddr[26]
tb_top.DUT.haddr[27]
tb_top.DUT.haddr[28]
tb_top.DUT.haddr[29]
tb_top.DUT.haddr[30]
tb_top.DUT.haddr[31]
tb_top.DUT.hsize
tb_top.DUT.hwdata[30]
tb_top.DUT.hwdata[31]
tb_top.DUT.hresp
tb_top.DUT.hrdata[30]
tb_top.DUT.hrdata[31]
tb_top.DUT.paddr[8]
tb_top.DUT.paddr[9]
tb_top.DUT.paddr[10]
tb_top.DUT.paddr[11]
tb_top.DUT.paddr[12]
tb_top.DUT.paddr[13]
tb_top.DUT.paddr[14]
tb_top.DUT.paddr[15]
tb_top.DUT.paddr[16]
tb_top.DUT.paddr[17]
tb_top.DUT.paddr[18]
tb_top.DUT.paddr[19]
tb_top.DUT.paddr[20]
tb_top.DUT.paddr[21]
tb_top.DUT.paddr[22]
tb_top.DUT.paddr[23]
tb_top.DUT.paddr[24]
tb_top.DUT.paddr[25]
tb_top.DUT.paddr[26]
tb_top.DUT.paddr[27]
tb_top.DUT.paddr[28]
tb_top.DUT.paddr[29]
tb_top.DUT.paddr[30]
tb_top.DUT.paddr[31]
tb_top.DUT.pwdata[30]
tb_top.DUT.pwdata[31]
tb_top.DUT.prdata[30]
tb_top.DUT.prdata[31]
tb_top.DUT.ctrl_flop[30]
tb_top.DUT.ctrl_flop[31]
tb_top.DUT.ctrl_flop[32]
tb_top.DUT.ctrl_flop[33]
tb_top.DUT.ctrl_flop[34]
tb_top.DUT.ctrl_flop[39]
tb_top.DUT.ctrl_read[10]
tb_top.DUT.ctrl_read[11]
tb_top.DUT.ctrl_read[12]
tb_top.DUT.ctrl_read[13]
tb_top.DUT.ctrl_read[14]
tb_top.DUT.ctrl_read[15]
tb_top.DUT.ctrl_read[16]
tb_top.DUT.ctrl_read[17]
tb_top.DUT.ctrl_read[18]
tb_top.DUT.ctrl_read[19]
tb_top.DUT.ctrl_read[20]
tb_top.DUT.ctrl_read[21]
tb_top.DUT.ctrl_read[22]
tb_top.DUT.ctrl_read[23]
tb_top.DUT.ctrl_read[24]
tb_top.DUT.ctrl_read[25]
tb_top.DUT.ctrl_read[26]
tb_top.DUT.ctrl_read[27]
tb_top.DUT.ctrl_read[28]
tb_top.DUT.ctrl_read[29]
tb_top.DUT.ctrl_read[30]
tb_top.DUT.ctrl_read[31]
tb_top.DUT.ctrl_read[32]
tb_top.DUT.ctrl_read[33]
tb_top.DUT.ctrl_read[34]
tb_top.DUT.ctrl_read[39]
tb_top.DUT.ahb_data_flop[30]
tb_top.DUT.ahb_data_flop[31]
tb_top.DUT.ahb_data_read[30]
tb_top.DUT.ahb_data_read[31]
tb_top.DUT.prdata_flop[30]
tb_top.DUT.prdata_flop[31]
tb_top.DUT.apb_data_read[30]
tb_top.DUT.apb_data_read[31]
tb_top.DUT.ahb.haddr[30]
tb_top.DUT.ahb.haddr[31]
tb_top.DUT.ahb.hsize
tb_top.DUT.ahb.hwdata[30]
tb_top.DUT.ahb.hwdata[31]
tb_top.DUT.ahb.hrdata[30]
tb_top.DUT.ahb.hrdata[31]
tb_top.DUT.ahb.ctrl_flop[30]
tb_top.DUT.ahb.ctrl_flop[31]
tb_top.DUT.ahb.ctrl_flop[32]
tb_top.DUT.ahb.ctrl_flop[33]
tb_top.DUT.ahb.ctrl_flop[34]
tb_top.DUT.ahb.ctrl_flop[39]
tb_top.DUT.ahb.ahb_data_flop[30]
tb_top.DUT.ahb.ahb_data_flop[31]
tb_top.DUT.ahb.apb_data_read[30]
tb_top.DUT.ahb.apb_data_read[31]
tb_top.DUT.ahb.Initial_burst_count[1]
tb_top.DUT.apb.paddr[8]
tb_top.DUT.apb.paddr[9]
tb_top.DUT.apb.paddr[10]
tb_top.DUT.apb.paddr[11]
tb_top.DUT.apb.paddr[12]
tb_top.DUT.apb.paddr[13]
tb_top.DUT.apb.paddr[14]
tb_top.DUT.apb.paddr[15]
tb_top.DUT.apb.paddr[16]
tb_top.DUT.apb.paddr[17]
tb_top.DUT.apb.paddr[18]
tb_top.DUT.apb.paddr[19]
tb_top.DUT.apb.paddr[20]
tb_top.DUT.apb.paddr[21]
tb_top.DUT.apb.paddr[22]
tb_top.DUT.apb.paddr[23]
tb_top.DUT.apb.paddr[24]
tb_top.DUT.apb.paddr[25]
tb_top.DUT.apb.paddr[26]
tb_top.DUT.apb.paddr[27]
tb_top.DUT.apb.paddr[28]
tb_top.DUT.apb.paddr[29]
tb_top.DUT.apb.paddr[30]
tb_top.DUT.apb.paddr[31]
tb_top.DUT.apb.pwdata[30]
tb_top.DUT.apb.pwdata[31]
tb_top.DUT.apb.prdata[30]
tb_top.DUT.apb.prdata[31]
tb_top.DUT.apb.prdata_flop[30]
tb_top.DUT.apb.prdata_flop[31]
tb_top.DUT.apb.ctrl_read[30]
tb_top.DUT.apb.ctrl_read[31]
tb_top.DUT.apb.ctrl_read[32]
tb_top.DUT.apb.ctrl_read[33]
tb_top.DUT.apb.ctrl_read[34]
tb_top.DUT.apb.ctrl_read[39]
tb_top.DUT.apb.ahb_data_read[30]
tb_top.DUT.apb.ahb_data_read[31]
tb_top.DUT.ctrl_fifo.wdata[30]
tb_top.DUT.ctrl_fifo.wdata[31]
tb_top.DUT.ctrl_fifo.wdata[32]
tb_top.DUT.ctrl_fifo.wdata[33]
tb_top.DUT.ctrl_fifo.wdata[34]
tb_top.DUT.ctrl_fifo.wdata[39]
tb_top.DUT.ctrl_fifo.rdata[30]
tb_top.DUT.ctrl_fifo.rdata[31]
tb_top.DUT.ctrl_fifo.rdata[32]
tb_top.DUT.ctrl_fifo.rdata[33]
tb_top.DUT.ctrl_fifo.rdata[34]
tb_top.DUT.ctrl_fifo.rdata[39]
tb_top.DUT.ahb_fifo.wdata[30]
tb_top.DUT.ahb_fifo.wdata[31]
tb_top.DUT.ahb_fifo.rdata[30]
tb_top.DUT.ahb_fifo.rdata[31]
tb_top.DUT.apb_fifo.wdata[30]
tb_top.DUT.apb_fifo.wdata[31]
tb_top.DUT.apb_fifo.rdata[30]
tb_top.DUT.apb_fifo.rdata[31]
tb_top.apb.paddr[8]
tb_top.apb.paddr[9]
tb_top.apb.paddr[10]
tb_top.apb.paddr[11]
tb_top.apb.paddr[12]
tb_top.apb.paddr[13]
tb_top.apb.paddr[14]
tb_top.apb.paddr[15]
tb_top.apb.paddr[16]
tb_top.apb.paddr[17]
tb_top.apb.paddr[18]
tb_top.apb.paddr[19]
tb_top.apb.paddr[20]
tb_top.apb.paddr[21]
tb_top.apb.paddr[22]
tb_top.apb.paddr[23]
tb_top.apb.paddr[24]
tb_top.apb.paddr[25]
tb_top.apb.paddr[26]
tb_top.apb.paddr[27]
tb_top.apb.paddr[28]
tb_top.apb.paddr[29]
tb_top.apb.paddr[30]
tb_top.apb.paddr[31]
tb_top.apb.pwdata[30]
tb_top.apb.pwdata[31]
tb_top.apb.prdata[30]
tb_top.apb.prdata[31]
